
T1340 000:516 SEGGER J-Link V4.36l Log File (0000ms, 0516ms total)
T1340 000:516 DLL Compiled: Dec  2 2011 18:52:36 (0000ms, 0516ms total)
T1340 000:516 Logging started @ 2017-04-12 22:56 (0001ms, 0516ms total)
T1340 000:517 JLINK_SetWarnOutHandler(...) (0000ms, 0517ms total)
T1340 000:517 JLINK_OpenEx(...)
Firmware: J-Link ARM V8 compiled Jan 31 2018 18:34:52
Hardware: V8.00
S/N: 20080643
Feature(s): RDI,FlashDL,FlashBP,JFlash,GDBFull  returns O.K. (0249ms, 0517ms total)
T1340 000:766 JLINK_SetErrorOutHandler(...) (0000ms, 0766ms total)
T1340 000:766 JLINK_ExecCommand("Device = STM32F103C8", ...)
                JLINK_ExecCommand("map ram 0x20000000 - 0x20004FFF", ...)  returns 0x00 (0000ms, 0000ms total)
                JLINK_AddMirrorAreaEx(Addr = 0x00000000, Size = 0x00000000) (0000ms, 0000ms total)
              Device "STM32F103C8" selected (64 KB flash, 20 KB RAM).  returns 0x00 (0005ms, 0766ms total)
T1340 000:772 JLINK_ExecCommand("ProjectFile = "E:\Ç¶ÈëÊ½\Githome\3d-printer\JLinkSettings.ini"", ...)  returns 0x00 (0001ms, 0771ms total)
T1340 000:777 JLINK_ExecCommand("DisableConnectionTimeout", ...)  returns 0x00 (0000ms, 0772ms total)
T1340 000:777 JLINK_TIF_Select(JLINKARM_TIF_SWD)  returns 0x00 (0001ms, 0772ms total)
T1340 000:779 JLINK_SetSpeed(2000) (0000ms, 0773ms total)
T1340 000:779 JLINK_GetHardwareVersion()  returns 0x13880 (0000ms, 0773ms total)
T1340 000:779 JLINK_GetDLLVersion()  returns 43612 (0000ms, 0773ms total)
T1340 000:779 JLINK_GetFirmwareString(...) (0000ms, 0773ms total)
T1340 000:790 JLINK_GetDLLVersion()  returns 43612 (0000ms, 0773ms total)
T1340 000:790 JLINK_GetCompileDateTime() (0000ms, 0773ms total)
T1340 000:794 JLINK_GetFirmwareString(...) (0000ms, 0773ms total)
T1340 000:797 JLINK_GetHardwareVersion()  returns 0x13880 (0000ms, 0773ms total)
T1340 000:812 JLINK_GetId() >0x108 TIF>Found SWD-DP with ID 0x1BA01477 >0x33 TIF> >0x33 TIF> >0x35 TIF> >0x33 TIF> >0x35 TIF> >0x33 TIF> >0x33 TIF> >0x35 TIF> >0x33 TIF> >0x33 TIF> >0x35 TIF> >0x33 TIF> >0x33 TIF> >0x35 TIF> >0x33 TIF> >0x33 TIF> >0x35 TIF> >0x35 TIF> >0x35 TIF> >0x35 TIF> >0x35 TIF> >0x33 TIF> >0x33 TIF> >0x35 TIF> >0x33 TIF> >0x33 TIF> >0x33 TIF>TPIU fitted. >0x35 TIF> >0x33 TIF> >0x33 TIF> >0x35 TIF> >0x33 TIF> >0x33 TIF>  FPUnit: 6 code (BP) slots and 2 literal slots >0x35 TIF>
 >0x33 TIF> >0x33 TIF> >0x35 TIF> >0x35 TIF> >0x35 TIF> >0x33 TIF> >0x33 TIF> >0x35 TIF> >0x33 TIF> >0x33 TIF> >0x35 TIF> >0x33 TIF> >0x33 TIF>Found Cortex-M3 r1p1, Little endian. >0x33 TIF>  returns 0x1BA01477 (0039ms, 0773ms total)
T1340 000:851 JLINK_GetDebugInfo(0x100) -- Value=0xE00FF003  returns 0x00 (0000ms, 0812ms total)
T1340 000:855 JLINK_ReadMem (0xE00FFFF0, 0x0010 Bytes, ...) -- CPU is running -- CPU_ReadMem(16 bytes @ 0xE00FFFF0) -- Data:  0D 00 00 00 10 00 00 00 05 00 00 00 B1 00 00 00  returns 0x00 (0001ms, 0812ms total)
T1340 000:856 JLINK_ReadMem (0xE00FFFD0, 0x0020 Bytes, ...) -- CPU is running -- CPU_ReadMem(32 bytes @ 0xE00FFFD0) -- Data:  00 00 00 00 00 00 00 00 00 00 00 00 00 00 00 00 ...  returns 0x00 (0001ms, 0813ms total)
T1340 000:857 JLINK_ReadMem (0xE00FF000, 0x0018 Bytes, ...) -- CPU is running -- CPU_ReadMem(24 bytes @ 0xE00FF000) -- Data:  03 F0 F0 FF 03 20 F0 FF 03 30 F0 FF 03 10 F0 FF ...  returns 0x00 (0001ms, 0814ms total)
T1340 000:858 JLINK_ReadMemU32(0xE000ED00, 0x0001 Items, ...) -- CPU is running -- CPU_ReadMem(4 bytes @ 0xE000ED00) -- Data:  31 C2 1F 41  returns 0x01 (0001ms, 0815ms total)
T1340 000:859 JLINK_SetResetType(JLINKARM_RESET_TYPE_NORMAL)  returns JLINKARM_RESET_TYPE_NORMAL (0000ms, 0816ms total)
T1340 000:860 JLINK_Reset() >0x108 TIF>Found SWD-DP with ID 0x1BA01477 >0x33 TIF> >0x33 TIF> >0x35 TIF> >0x33 TIF> >0x35 TIF> >0x33 TIF> >0x33 TIF> >0x35 TIF> >0x33 TIF> >0x33 TIF> >0x35 TIF> >0x33 TIF> >0x33 TIF> >0x35 TIF> >0x33 TIF> >0x33 TIF> >0x35 TIF> >0x35 TIF> >0x35 TIF> >0x35 TIF> >0x35 TIF> >0x33 TIF> >0x33 TIF> >0x35 TIF> >0x33 TIF> >0x33 TIF> >0x33 TIF>TPIU fitted. >0x35 TIF> >0x33 TIF> >0x33 TIF> >0x35 TIF> >0x33 TIF> >0x33 TIF>  FPUnit: 6 code (BP) slots and 2 literal slots >0x35 TIF>
 >0x33 TIF> >0x33 TIF> >0x35 TIF> >0x33 TIF> >0x33 TIF> >0x35 TIF> >0x33 TIF> >0x33 TIF> >0x35 TIF> >0x33 TIF> >0x33 TIF>Found Cortex-M3 r1p1, Little endian. (0051ms, 0817ms total)
T1340 000:911 JLINK_Halt()  returns 0x00 (0001ms, 0868ms total)
T1340 000:912 JLINK_IsHalted()  returns TRUE (0000ms, 0869ms total)
T1340 000:912 JLINK_ReadMemU32(0xE000EDF0, 0x0001 Items, ...) -- CPU_ReadMem(4 bytes @ 0xE000EDF0) -- Data:  03 00 03 00  returns 0x01 (0001ms, 0869ms total)
T1340 000:913 JLINK_WriteU32(0xE000EDF0, 0xA05F0003) -- CPU_WriteMem(4 bytes @ 0xE000EDF0)  returns 0x00 (0000ms, 0870ms total)
T1340 000:913 JLINK_WriteU32(0xE000EDFC, 0x01000000) -- CPU_WriteMem(4 bytes @ 0xE000EDFC)  returns 0x00 (0001ms, 0870ms total)
T1340 000:924 JLINK_GetHWStatus(...)  returns 0x00 (0000ms, 0871ms total)
T1340 000:930 JLINK_GetNumBPUnits(Type = 0xFFFFFF00)  returns 0x06 (0000ms, 0871ms total)
T1340 000:930 JLINK_GetNumBPUnits(Type = 0xF0)  returns 0x2000 (0001ms, 0871ms total)
T1340 000:931 JLINK_GetNumWPUnits()  returns 0x04 (0000ms, 0872ms total)
T1340 000:937 JLINK_GetSpeed()  returns 0x7D0 (0001ms, 0872ms total)
T1340 000:943 JLINK_ReadMemU32(0xE000E004, 0x0001 Items, ...) -- CPU_ReadMem(4 bytes @ 0xE000E004) -- Data:  01 00 00 00  returns 0x01 (0001ms, 0873ms total)
T1340 000:944 JLINK_ReadMemU32(0xE000E004, 0x0001 Items, ...) -- CPU_ReadMem(4 bytes @ 0xE000E004) -- Data:  01 00 00 00  returns 0x01 (0001ms, 0874ms total)
T1340 000:945 JLINK_WriteMem(0xE0001000, 0x001C Bytes, ...) -- Data:  01 00 00 00 00 00 00 00 00 00 00 00 00 00 00 00 ... -- CPU_WriteMem(28 bytes @ 0xE0001000)  returns 0x1C (0001ms, 0875ms total)
T1340 000:946 JLINK_ReadMem (0xE0001000, 0x001C Bytes, ...) -- CPU_ReadMem(28 bytes @ 0xE0001000) -- Data:  01 00 00 40 00 00 00 00 00 00 00 00 00 00 00 00 ...  returns 0x00 (0001ms, 0876ms total)
T1340 000:947 JLINK_Halt()  returns 0x00 (0000ms, 0877ms total)
T1340 000:947 JLINK_IsHalted()  returns TRUE (0001ms, 0877ms total)
T1340 000:950 JLINK_WriteMem(0x20000000, 0x0164 Bytes, ...) -- Data:  00 BE 0A E0 0D 78 2D 06 68 40 08 24 40 00 00 D3 ... -- CPU_WriteMem(356 bytes @ 0x20000000)  returns 0x164 (0005ms, 0877ms total)
T1340 000:955 JLINK_WriteReg(R0, 0x08000000)  returns 0x00 (0000ms, 0882ms total)
T1340 000:955 JLINK_WriteReg(R1, 0x007A1200)  returns 0x00 (0000ms, 0882ms total)
T1340 000:955 JLINK_WriteReg(R2, 0x00000001)  returns 0x00 (0000ms, 0882ms total)
T1340 000:955 JLINK_WriteReg(R3, 0x00000000)  returns 0x00 (0000ms, 0882ms total)
T1340 000:955 JLINK_WriteReg(R4, 0x00000000)  returns 0x00 (0000ms, 0882ms total)
T1340 000:955 JLINK_WriteReg(R5, 0x00000000)  returns 0x00 (0001ms, 0882ms total)
T1340 000:956 JLINK_WriteReg(R6, 0x00000000)  returns 0x00 (0000ms, 0883ms total)
T1340 000:956 JLINK_WriteReg(R7, 0x00000000)  returns 0x00 (0000ms, 0883ms total)
T1340 000:956 JLINK_WriteReg(R8, 0x00000000)  returns 0x00 (0000ms, 0883ms total)
T1340 000:956 JLINK_WriteReg(R9, 0x20000160)  returns 0x00 (0000ms, 0883ms total)
T1340 000:956 JLINK_WriteReg(R10, 0x00000000)  returns 0x00 (0000ms, 0883ms total)
T1340 000:956 JLINK_WriteReg(R11, 0x00000000)  returns 0x00 (0000ms, 0883ms total)
T1340 000:956 JLINK_WriteReg(R12, 0x00000000)  returns 0x00 (0000ms, 0883ms total)
T1340 000:956 JLINK_WriteReg(R13, 0x20000800)  returns 0x00 (0001ms, 0883ms total)
T1340 000:957 JLINK_WriteReg(R14, 0x20000001)  returns 0x00 (0000ms, 0884ms total)
T1340 000:957 JLINK_WriteReg(R15, 0x20000038)  returns 0x00 (0000ms, 0884ms total)
T1340 000:957 JLINK_WriteReg(XPSR, 0x01000000)  returns 0x00 (0000ms, 0884ms total)
T1340 000:957 JLINK_WriteReg(MSP, 0x20000800)  returns 0x00 (0000ms, 0884ms total)
T1340 000:957 JLINK_WriteReg(PSP, 0x20000800)  returns 0x00 (0000ms, 0884ms total)
T1340 000:957 JLINK_WriteReg(CFBP, 0x00000000)  returns 0x00 (0000ms, 0884ms total)
T1340 000:957 JLINK_SetBPEx(Addr = 0x20000000, Type = 0xFFFFFFF2) -- CPU_ReadMem(2 bytes @ 0x20000000)  returns 0x00000001 (0001ms, 0884ms total)
T1340 000:958 JLINK_Go() -- CPU_WriteMem(2 bytes @ 0x20000000) -- CPU_WriteMem(4 bytes @ 0xE0002008) -- CPU_WriteMem(4 bytes @ 0xE000200C) -- CPU_WriteMem(4 bytes @ 0xE0002010) -- CPU_WriteMem(4 bytes @ 0xE0002014) -- CPU_WriteMem(4 bytes @ 0xE0002018) -- CPU_WriteMem(4 bytes @ 0xE000201C) (0008ms, 0885ms total)
T1340 000:966 JLINK_IsHalted() -- CPU_ReadMem(2 bytes @ 0x20000000)  returns TRUE (0006ms, 0893ms total)
T1340 000:972 JLINK_ReadReg(R15)  returns 0x20000000 (0000ms, 0893ms total)
T1340 000:972 JLINK_ClrBPEx(BPHandle = 0x00000001)  returns 0x00 (0000ms, 0893ms total)
T1340 000:972 JLINK_ReadReg(R0)  returns 0x00000000 (0000ms, 0893ms total)
T1340 000:973 JLINK_WriteReg(R0, 0x08000000)  returns 0x00 (0001ms, 0894ms total)
T1340 000:974 JLINK_WriteReg(R1, 0x007A1200)  returns 0x00 (0000ms, 0895ms total)
T1340 000:974 JLINK_WriteReg(R2, 0x00000001)  returns 0x00 (0000ms, 0895ms total)
T1340 000:974 JLINK_WriteReg(R3, 0x00000000)  returns 0x00 (0000ms, 0895ms total)
T1340 000:974 JLINK_WriteReg(R4, 0x00000000)  returns 0x00 (0000ms, 0895ms total)
T1340 000:974 JLINK_WriteReg(R5, 0x00000000)  returns 0x00 (0000ms, 0895ms total)
T1340 000:974 JLINK_WriteReg(R6, 0x00000000)  returns 0x00 (0000ms, 0895ms total)
T1340 000:974 JLINK_WriteReg(R7, 0x00000000)  returns 0x00 (0000ms, 0895ms total)
T1340 000:974 JLINK_WriteReg(R8, 0x00000000)  returns 0x00 (0000ms, 0895ms total)
T1340 000:974 JLINK_WriteReg(R9, 0x20000160)  returns 0x00 (0001ms, 0895ms total)
T1340 000:975 JLINK_WriteReg(R10, 0x00000000)  returns 0x00 (0000ms, 0896ms total)
T1340 000:975 JLINK_WriteReg(R11, 0x00000000)  returns 0x00 (0000ms, 0896ms total)
T1340 000:975 JLINK_WriteReg(R12, 0x00000000)  returns 0x00 (0000ms, 0896ms total)
T1340 000:975 JLINK_WriteReg(R13, 0x20000800)  returns 0x00 (0000ms, 0896ms total)
T1340 000:975 JLINK_WriteReg(R14, 0x20000001)  returns 0x00 (0000ms, 0896ms total)
T1340 000:975 JLINK_WriteReg(R15, 0x2000007C)  returns 0x00 (0000ms, 0896ms total)
T1340 000:975 JLINK_WriteReg(XPSR, 0x01000000)  returns 0x00 (0000ms, 0896ms total)
T1340 000:975 JLINK_WriteReg(MSP, 0x20000800)  returns 0x00 (0000ms, 0896ms total)
T1340 000:975 JLINK_WriteReg(PSP, 0x20000800)  returns 0x00 (0000ms, 0896ms total)
T1340 000:975 JLINK_WriteReg(CFBP, 0x00000000)  returns 0x00 (0000ms, 0896ms total)
T1340 000:975 JLINK_SetBPEx(Addr = 0x20000000, Type = 0xFFFFFFF2)  returns 0x00000002 (0001ms, 0896ms total)
T1340 000:976 JLINK_Go() -- CPU_WriteMem(4 bytes @ 0xE0002008) -- CPU_WriteMem(4 bytes @ 0xE000200C) -- CPU_WriteMem(4 bytes @ 0xE0002010) -- CPU_WriteMem(4 bytes @ 0xE0002014) -- CPU_WriteMem(4 bytes @ 0xE0002018) -- CPU_WriteMem(4 bytes @ 0xE000201C) (0006ms, 0897ms total)
T1340 000:982 JLINK_IsHalted()  returns FALSE (0001ms, 0903ms total)
T1340 001:033 JLINK_IsHalted() -- CPU_ReadMem(2 bytes @ 0x20000000)  returns TRUE (0006ms, 0903ms total)
T1340 001:039 JLINK_ReadReg(R15)  returns 0x20000000 (0000ms, 0903ms total)
T1340 001:039 JLINK_ClrBPEx(BPHandle = 0x00000002)  returns 0x00 (0000ms, 0903ms total)
T1340 001:039 JLINK_ReadReg(R0)  returns 0x00000000 (0000ms, 0903ms total)
T1340 001:090 JLINK_WriteReg(R0, 0x00000001)  returns 0x00 (0001ms, 0903ms total)
T1340 001:091 JLINK_WriteReg(R1, 0x007A1200)  returns 0x00 (0000ms, 0904ms total)
T1340 001:091 JLINK_WriteReg(R2, 0x00000001)  returns 0x00 (0000ms, 0904ms total)
T1340 001:091 JLINK_WriteReg(R3, 0x00000000)  returns 0x00 (0000ms, 0904ms total)
T1340 001:091 JLINK_WriteReg(R4, 0x00000000)  returns 0x00 (0000ms, 0904ms total)
T1340 001:091 JLINK_WriteReg(R5, 0x00000000)  returns 0x00 (0000ms, 0904ms total)
T1340 001:091 JLINK_WriteReg(R6, 0x00000000)  returns 0x00 (0000ms, 0904ms total)
T1340 001:091 JLINK_WriteReg(R7, 0x00000000)  returns 0x00 (0000ms, 0904ms total)
T1340 001:091 JLINK_WriteReg(R8, 0x00000000)  returns 0x00 (0000ms, 0904ms total)
T1340 001:091 JLINK_WriteReg(R9, 0x20000160)  returns 0x00 (0000ms, 0904ms total)
T1340 001:091 JLINK_WriteReg(R10, 0x00000000)  returns 0x00 (0000ms, 0904ms total)
T1340 001:091 JLINK_WriteReg(R11, 0x00000000)  returns 0x00 (0000ms, 0904ms total)
T1340 001:091 JLINK_WriteReg(R12, 0x00000000)  returns 0x00 (0001ms, 0904ms total)
T1340 001:092 JLINK_WriteReg(R13, 0x20000800)  returns 0x00 (0000ms, 0905ms total)
T1340 001:092 JLINK_WriteReg(R14, 0x20000001)  returns 0x00 (0000ms, 0905ms total)
T1340 001:092 JLINK_WriteReg(R15, 0x2000006A)  returns 0x00 (0000ms, 0905ms total)
T1340 001:092 JLINK_WriteReg(XPSR, 0x01000000)  returns 0x00 (0000ms, 0905ms total)
T1340 001:092 JLINK_WriteReg(MSP, 0x20000800)  returns 0x00 (0000ms, 0905ms total)
T1340 001:092 JLINK_WriteReg(PSP, 0x20000800)  returns 0x00 (0000ms, 0905ms total)
T1340 001:092 JLINK_WriteReg(CFBP, 0x00000000)  returns 0x00 (0000ms, 0905ms total)
T1340 001:092 JLINK_SetBPEx(Addr = 0x20000000, Type = 0xFFFFFFF2)  returns 0x00000003 (0000ms, 0905ms total)
T1340 001:092 JLINK_Go() -- CPU_WriteMem(4 bytes @ 0xE0002008) -- CPU_WriteMem(4 bytes @ 0xE000200C) -- CPU_WriteMem(4 bytes @ 0xE0002010) -- CPU_WriteMem(4 bytes @ 0xE0002014) -- CPU_WriteMem(4 bytes @ 0xE0002018) -- CPU_WriteMem(4 bytes @ 0xE000201C) (0007ms, 0905ms total)
T1340 001:099 JLINK_IsHalted() -- CPU_ReadMem(2 bytes @ 0x20000000)  returns TRUE (0006ms, 0912ms total)
T1340 001:105 JLINK_ReadReg(R15)  returns 0x20000000 (0000ms, 0912ms total)
T1340 001:105 JLINK_ClrBPEx(BPHandle = 0x00000003)  returns 0x00 (0000ms, 0912ms total)
T1340 001:105 JLINK_ReadReg(R0)  returns 0x00000000 (0000ms, 0912ms total)
T1340 001:111 JLINK_WriteMem(0x20000000, 0x0164 Bytes, ...) -- Data:  00 BE 0A E0 0D 78 2D 06 68 40 08 24 40 00 00 D3 ... -- CPU_WriteMem(356 bytes @ 0x20000000)  returns 0x164 (0004ms, 0912ms total)
T1340 001:115 JLINK_WriteReg(R0, 0x08000000)  returns 0x00 (0000ms, 0916ms total)
T1340 001:115 JLINK_WriteReg(R1, 0x007A1200)  returns 0x00 (0001ms, 0916ms total)
T1340 001:116 JLINK_WriteReg(R2, 0x00000002)  returns 0x00 (0000ms, 0917ms total)
T1340 001:116 JLINK_WriteReg(R3, 0x00000000)  returns 0x00 (0000ms, 0917ms total)
T1340 001:116 JLINK_WriteReg(R4, 0x00000000)  returns 0x00 (0000ms, 0917ms total)
T1340 001:116 JLINK_WriteReg(R5, 0x00000000)  returns 0x00 (0000ms, 0917ms total)
T1340 001:116 JLINK_WriteReg(R6, 0x00000000)  returns 0x00 (0000ms, 0917ms total)
T1340 001:116 JLINK_WriteReg(R7, 0x00000000)  returns 0x00 (0000ms, 0917ms total)
T1340 001:116 JLINK_WriteReg(R8, 0x00000000)  returns 0x00 (0000ms, 0917ms total)
T1340 001:116 JLINK_WriteReg(R9, 0x20000160)  returns 0x00 (0000ms, 0917ms total)
T1340 001:116 JLINK_WriteReg(R10, 0x00000000)  returns 0x00 (0000ms, 0917ms total)
T1340 001:116 JLINK_WriteReg(R11, 0x00000000)  returns 0x00 (0000ms, 0917ms total)
T1340 001:116 JLINK_WriteReg(R12, 0x00000000)  returns 0x00 (0000ms, 0917ms total)
T1340 001:116 JLINK_WriteReg(R13, 0x20000800)  returns 0x00 (0000ms, 0917ms total)
T1340 001:116 JLINK_WriteReg(R14, 0x20000001)  returns 0x00 (0001ms, 0917ms total)
T1340 001:117 JLINK_WriteReg(R15, 0x20000038)  returns 0x00 (0000ms, 0918ms total)
T1340 001:117 JLINK_WriteReg(XPSR, 0x01000000)  returns 0x00 (0000ms, 0918ms total)
T1340 001:117 JLINK_WriteReg(MSP, 0x20000800)  returns 0x00 (0000ms, 0918ms total)
T1340 001:117 JLINK_WriteReg(PSP, 0x20000800)  returns 0x00 (0000ms, 0918ms total)
T1340 001:117 JLINK_WriteReg(CFBP, 0x00000000)  returns 0x00 (0000ms, 0918ms total)
T1340 001:117 JLINK_SetBPEx(Addr = 0x20000000, Type = 0xFFFFFFF2) -- CPU_ReadMem(2 bytes @ 0x20000000)  returns 0x00000004 (0001ms, 0918ms total)
T1340 001:118 JLINK_Go() -- CPU_WriteMem(2 bytes @ 0x20000000) -- CPU_WriteMem(4 bytes @ 0xE0002008) -- CPU_WriteMem(4 bytes @ 0xE000200C) -- CPU_WriteMem(4 bytes @ 0xE0002010) -- CPU_WriteMem(4 bytes @ 0xE0002014) -- CPU_WriteMem(4 bytes @ 0xE0002018) -- CPU_WriteMem(4 bytes @ 0xE000201C) (0007ms, 0919ms total)
T1340 001:125 JLINK_IsHalted() -- CPU_ReadMem(2 bytes @ 0x20000000)  returns TRUE (0007ms, 0926ms total)
T1340 001:132 JLINK_ReadReg(R15)  returns 0x20000000 (0000ms, 0926ms total)
T1340 001:132 JLINK_ClrBPEx(BPHandle = 0x00000004)  returns 0x00 (0000ms, 0926ms total)
T1340 001:132 JLINK_ReadReg(R0)  returns 0x00000000 (0000ms, 0926ms total)
T1340 001:132 JLINK_WriteMem(0x20000164, 0x0400 Bytes, ...) -- Data:  38 1D 00 20 FD 53 00 08 05 54 00 08 07 54 00 08 ... -- CPU_WriteMem(1024 bytes @ 0x20000164)  returns 0x400 (0012ms, 0926ms total)
T1340 001:144 JLINK_WriteReg(R0, 0x08000000)  returns 0x00 (0000ms, 0938ms total)
T1340 001:144 JLINK_WriteReg(R1, 0x00000400)  returns 0x00 (0000ms, 0938ms total)
T1340 001:144 JLINK_WriteReg(R2, 0x20000164)  returns 0x00 (0000ms, 0938ms total)
T1340 001:144 JLINK_WriteReg(R3, 0x00000000)  returns 0x00 (0000ms, 0938ms total)
T1340 001:144 JLINK_WriteReg(R4, 0x00000000)  returns 0x00 (0000ms, 0938ms total)
T1340 001:144 JLINK_WriteReg(R5, 0x00000000)  returns 0x00 (0000ms, 0938ms total)
T1340 001:144 JLINK_WriteReg(R6, 0x00000000)  returns 0x00 (0000ms, 0938ms total)
T1340 001:144 JLINK_WriteReg(R7, 0x00000000)  returns 0x00 (0000ms, 0938ms total)
T1340 001:144 JLINK_WriteReg(R8, 0x00000000)  returns 0x00 (0000ms, 0938ms total)
T1340 001:144 JLINK_WriteReg(R9, 0x20000160)  returns 0x00 (0000ms, 0938ms total)
T1340 001:144 JLINK_WriteReg(R10, 0x00000000)  returns 0x00 (0000ms, 0938ms total)
T1340 001:144 JLINK_WriteReg(R11, 0x00000000)  returns 0x00 (0000ms, 0938ms total)
T1340 001:144 JLINK_WriteReg(R12, 0x00000000)  returns 0x00 (0001ms, 0938ms total)
T1340 001:145 JLINK_WriteReg(R13, 0x20000800)  returns 0x00 (0000ms, 0939ms total)
T1340 001:145 JLINK_WriteReg(R14, 0x20000001)  returns 0x00 (0000ms, 0939ms total)
T1340 001:145 JLINK_WriteReg(R15, 0x200000F4)  returns 0x00 (0000ms, 0939ms total)
T1340 001:145 JLINK_WriteReg(XPSR, 0x01000000)  returns 0x00 (0000ms, 0939ms total)
T1340 001:145 JLINK_WriteReg(MSP, 0x20000800)  returns 0x00 (0000ms, 0939ms total)
T1340 001:145 JLINK_WriteReg(PSP, 0x20000800)  returns 0x00 (0000ms, 0939ms total)
T1340 001:145 JLINK_WriteReg(CFBP, 0x00000000)  returns 0x00 (0000ms, 0939ms total)
T1340 001:145 JLINK_SetBPEx(Addr = 0x20000000, Type = 0xFFFFFFF2)  returns 0x00000005 (0000ms, 0939ms total)
T1340 001:145 JLINK_Go() -- CPU_WriteMem(4 bytes @ 0xE0002008) -- CPU_WriteMem(4 bytes @ 0xE000200C) -- CPU_WriteMem(4 bytes @ 0xE0002010) -- CPU_WriteMem(4 bytes @ 0xE0002014) -- CPU_WriteMem(4 bytes @ 0xE0002018) -- CPU_WriteMem(4 bytes @ 0xE000201C) (0007ms, 0939ms total)
T1340 001:152 JLINK_IsHalted()  returns FALSE (0001ms, 0946ms total)
T1340 001:203 JLINK_IsHalted() -- CPU_ReadMem(2 bytes @ 0x20000000)  returns TRUE (0006ms, 0946ms total)
T1340 001:209 JLINK_ReadReg(R15)  returns 0x20000000 (0000ms, 0946ms total)
T1340 001:209 JLINK_ClrBPEx(BPHandle = 0x00000005)  returns 0x00 (0000ms, 0946ms total)
T1340 001:209 JLINK_ReadReg(R0)  returns 0x00000000 (0000ms, 0946ms total)
T1340 001:210 JLINK_WriteMem(0x20000164, 0x0400 Bytes, ...) -- Data:  51 68 60 68 05 F0 B0 FB 02 D2 5D 48 40 68 60 60 ... -- CPU_WriteMem(1024 bytes @ 0x20000164)  returns 0x400 (0011ms, 0946ms total)
T1340 001:221 JLINK_WriteReg(R0, 0x08000400)  returns 0x00 (0000ms, 0957ms total)
T1340 001:221 JLINK_WriteReg(R1, 0x00000400)  returns 0x00 (0000ms, 0957ms total)
T1340 001:221 JLINK_WriteReg(R2, 0x20000164)  returns 0x00 (0000ms, 0957ms total)
T1340 001:221 JLINK_WriteReg(R3, 0x00000000)  returns 0x00 (0000ms, 0957ms total)
T1340 001:221 JLINK_WriteReg(R4, 0x00000000)  returns 0x00 (0000ms, 0957ms total)
T1340 001:221 JLINK_WriteReg(R5, 0x00000000)  returns 0x00 (0001ms, 0957ms total)
T1340 001:222 JLINK_WriteReg(R6, 0x00000000)  returns 0x00 (0000ms, 0958ms total)
T1340 001:222 JLINK_WriteReg(R7, 0x00000000)  returns 0x00 (0000ms, 0958ms total)
T1340 001:222 JLINK_WriteReg(R8, 0x00000000)  returns 0x00 (0000ms, 0958ms total)
T1340 001:222 JLINK_WriteReg(R9, 0x20000160)  returns 0x00 (0000ms, 0958ms total)
T1340 001:222 JLINK_WriteReg(R10, 0x00000000)  returns 0x00 (0000ms, 0958ms total)
T1340 001:222 JLINK_WriteReg(R11, 0x00000000)  returns 0x00 (0000ms, 0958ms total)
T1340 001:222 JLINK_WriteReg(R12, 0x00000000)  returns 0x00 (0000ms, 0958ms total)
T1340 001:222 JLINK_WriteReg(R13, 0x20000800)  returns 0x00 (0000ms, 0958ms total)
T1340 001:222 JLINK_WriteReg(R14, 0x20000001)  returns 0x00 (0000ms, 0958ms total)
T1340 001:222 JLINK_WriteReg(R15, 0x200000F4)  returns 0x00 (0001ms, 0958ms total)
T1340 001:223 JLINK_WriteReg(XPSR, 0x01000000)  returns 0x00 (0000ms, 0959ms total)
T1340 001:223 JLINK_WriteReg(MSP, 0x20000800)  returns 0x00 (0000ms, 0959ms total)
T1340 001:223 JLINK_WriteReg(PSP, 0x20000800)  returns 0x00 (0000ms, 0959ms total)
T1340 001:223 JLINK_WriteReg(CFBP, 0x00000000)  returns 0x00 (0000ms, 0959ms total)
T1340 001:223 JLINK_SetBPEx(Addr = 0x20000000, Type = 0xFFFFFFF2)  returns 0x00000006 (0000ms, 0959ms total)
T1340 001:223 JLINK_Go() -- CPU_WriteMem(4 bytes @ 0xE0002008) -- CPU_WriteMem(4 bytes @ 0xE000200C) -- CPU_WriteMem(4 bytes @ 0xE0002010) -- CPU_WriteMem(4 bytes @ 0xE0002014) -- CPU_WriteMem(4 bytes @ 0xE0002018) -- CPU_WriteMem(4 bytes @ 0xE000201C) (0007ms, 0959ms total)
T1340 001:230 JLINK_IsHalted()  returns FALSE (0001ms, 0966ms total)
T1340 001:281 JLINK_IsHalted() -- CPU_ReadMem(2 bytes @ 0x20000000)  returns TRUE (0006ms, 0966ms total)
T1340 001:287 JLINK_ReadReg(R15)  returns 0x20000000 (0000ms, 0966ms total)
T1340 001:287 JLINK_ClrBPEx(BPHandle = 0x00000006)  returns 0x00 (0000ms, 0966ms total)
T1340 001:287 JLINK_ReadReg(R0)  returns 0x00000000 (0000ms, 0966ms total)
T1340 001:288 JLINK_WriteMem(0x20000164, 0x0400 Bytes, ...) -- Data:  80 78 07 90 FF F7 F4 FC 00 28 7E D0 78 48 00 78 ... -- CPU_WriteMem(1024 bytes @ 0x20000164)  returns 0x400 (0011ms, 0966ms total)
T1340 001:299 JLINK_WriteReg(R0, 0x08000800)  returns 0x00 (0000ms, 0977ms total)
T1340 001:299 JLINK_WriteReg(R1, 0x00000400)  returns 0x00 (0000ms, 0977ms total)
T1340 001:299 JLINK_WriteReg(R2, 0x20000164)  returns 0x00 (0000ms, 0977ms total)
T1340 001:299 JLINK_WriteReg(R3, 0x00000000)  returns 0x00 (0000ms, 0977ms total)
T1340 001:299 JLINK_WriteReg(R4, 0x00000000)  returns 0x00 (0000ms, 0977ms total)
T1340 001:299 JLINK_WriteReg(R5, 0x00000000)  returns 0x00 (0000ms, 0977ms total)
T1340 001:299 JLINK_WriteReg(R6, 0x00000000)  returns 0x00 (0000ms, 0977ms total)
T1340 001:300 JLINK_WriteReg(R7, 0x00000000)  returns 0x00 (0000ms, 0978ms total)
T1340 001:300 JLINK_WriteReg(R8, 0x00000000)  returns 0x00 (0000ms, 0978ms total)
T1340 001:300 JLINK_WriteReg(R9, 0x20000160)  returns 0x00 (0000ms, 0978ms total)
T1340 001:300 JLINK_WriteReg(R10, 0x00000000)  returns 0x00 (0000ms, 0978ms total)
T1340 001:300 JLINK_WriteReg(R11, 0x00000000)  returns 0x00 (0000ms, 0978ms total)
T1340 001:300 JLINK_WriteReg(R12, 0x00000000)  returns 0x00 (0000ms, 0978ms total)
T1340 001:300 JLINK_WriteReg(R13, 0x20000800)  returns 0x00 (0000ms, 0978ms total)
T1340 001:300 JLINK_WriteReg(R14, 0x20000001)  returns 0x00 (0000ms, 0978ms total)
T1340 001:300 JLINK_WriteReg(R15, 0x200000F4)  returns 0x00 (0000ms, 0978ms total)
T1340 001:300 JLINK_WriteReg(XPSR, 0x01000000)  returns 0x00 (0000ms, 0978ms total)
T1340 001:300 JLINK_WriteReg(MSP, 0x20000800)  returns 0x00 (0000ms, 0978ms total)
T1340 001:300 JLINK_WriteReg(PSP, 0x20000800)  returns 0x00 (0000ms, 0978ms total)
T1340 001:301 JLINK_WriteReg(CFBP, 0x00000000)  returns 0x00 (0000ms, 0979ms total)
T1340 001:301 JLINK_SetBPEx(Addr = 0x20000000, Type = 0xFFFFFFF2)  returns 0x00000007 (0000ms, 0979ms total)
T1340 001:301 JLINK_Go() -- CPU_WriteMem(4 bytes @ 0xE0002008) -- CPU_WriteMem(4 bytes @ 0xE000200C) -- CPU_WriteMem(4 bytes @ 0xE0002010) -- CPU_WriteMem(4 bytes @ 0xE0002014) -- CPU_WriteMem(4 bytes @ 0xE0002018) -- CPU_WriteMem(4 bytes @ 0xE000201C) (0007ms, 0979ms total)
T1340 001:308 JLINK_IsHalted()  returns FALSE (0001ms, 0986ms total)
T1340 001:359 JLINK_IsHalted() -- CPU_ReadMem(2 bytes @ 0x20000000)  returns TRUE (0007ms, 0986ms total)
T1340 001:366 JLINK_ReadReg(R15)  returns 0x20000000 (0001ms, 0986ms total)
T1340 001:367 JLINK_ClrBPEx(BPHandle = 0x00000007)  returns 0x00 (0000ms, 0987ms total)
T1340 001:367 JLINK_ReadReg(R0)  returns 0x00000000 (0000ms, 0987ms total)
T1340 001:367 JLINK_WriteMem(0x20000164, 0x0400 Bytes, ...) -- Data:  5D 39 01 F0 68 81 5B 29 B5 D1 01 F0 7D B9 00 BF ... -- CPU_WriteMem(1024 bytes @ 0x20000164)  returns 0x400 (0012ms, 0987ms total)
T1340 001:379 JLINK_WriteReg(R0, 0x08000C00)  returns 0x00 (0000ms, 0999ms total)
T1340 001:379 JLINK_WriteReg(R1, 0x00000400)  returns 0x00 (0000ms, 0999ms total)
T1340 001:379 JLINK_WriteReg(R2, 0x20000164)  returns 0x00 (0000ms, 0999ms total)
T1340 001:379 JLINK_WriteReg(R3, 0x00000000)  returns 0x00 (0000ms, 0999ms total)
T1340 001:379 JLINK_WriteReg(R4, 0x00000000)  returns 0x00 (0000ms, 0999ms total)
T1340 001:379 JLINK_WriteReg(R5, 0x00000000)  returns 0x00 (0000ms, 0999ms total)
T1340 001:379 JLINK_WriteReg(R6, 0x00000000)  returns 0x00 (0000ms, 0999ms total)
T1340 001:379 JLINK_WriteReg(R7, 0x00000000)  returns 0x00 (0000ms, 0999ms total)
T1340 001:379 JLINK_WriteReg(R8, 0x00000000)  returns 0x00 (0000ms, 0999ms total)
T1340 001:379 JLINK_WriteReg(R9, 0x20000160)  returns 0x00 (0000ms, 0999ms total)
T1340 001:379 JLINK_WriteReg(R10, 0x00000000)  returns 0x00 (0000ms, 0999ms total)
T1340 001:379 JLINK_WriteReg(R11, 0x00000000)  returns 0x00 (0001ms, 0999ms total)
T1340 001:380 JLINK_WriteReg(R12, 0x00000000)  returns 0x00 (0000ms, 1000ms total)
T1340 001:380 JLINK_WriteReg(R13, 0x20000800)  returns 0x00 (0000ms, 1000ms total)
T1340 001:380 JLINK_WriteReg(R14, 0x20000001)  returns 0x00 (0000ms, 1000ms total)
T1340 001:380 JLINK_WriteReg(R15, 0x200000F4)  returns 0x00 (0000ms, 1000ms total)
T1340 001:380 JLINK_WriteReg(XPSR, 0x01000000)  returns 0x00 (0000ms, 1000ms total)
T1340 001:380 JLINK_WriteReg(MSP, 0x20000800)  returns 0x00 (0000ms, 1000ms total)
T1340 001:380 JLINK_WriteReg(PSP, 0x20000800)  returns 0x00 (0000ms, 1000ms total)
T1340 001:380 JLINK_WriteReg(CFBP, 0x00000000)  returns 0x00 (0000ms, 1000ms total)
T1340 001:380 JLINK_SetBPEx(Addr = 0x20000000, Type = 0xFFFFFFF2)  returns 0x00000008 (0000ms, 1000ms total)
T1340 001:380 JLINK_Go() -- CPU_WriteMem(4 bytes @ 0xE0002008) -- CPU_WriteMem(4 bytes @ 0xE000200C) -- CPU_WriteMem(4 bytes @ 0xE0002010) -- CPU_WriteMem(4 bytes @ 0xE0002014) -- CPU_WriteMem(4 bytes @ 0xE0002018) -- CPU_WriteMem(4 bytes @ 0xE000201C) (0007ms, 1000ms total)
T1340 001:387 JLINK_IsHalted()  returns FALSE (0001ms, 1007ms total)
T1340 001:438 JLINK_IsHalted() -- CPU_ReadMem(2 bytes @ 0x20000000)  returns TRUE (0006ms, 1007ms total)
T1340 001:444 JLINK_ReadReg(R15)  returns 0x20000000 (0000ms, 1007ms total)
T1340 001:444 JLINK_ClrBPEx(BPHandle = 0x00000008)  returns 0x00 (0001ms, 1007ms total)
T1340 001:445 JLINK_ReadReg(R0)  returns 0x00000000 (0000ms, 1008ms total)
T1340 001:445 JLINK_WriteMem(0x20000164, 0x0400 Bytes, ...) -- Data:  08 90 32 99 08 98 40 1A B0 F5 7A 7F 41 D9 A5 A1 ... -- CPU_WriteMem(1024 bytes @ 0x20000164)  returns 0x400 (0011ms, 1008ms total)
T1340 001:456 JLINK_WriteReg(R0, 0x08001000)  returns 0x00 (0001ms, 1019ms total)
T1340 001:457 JLINK_WriteReg(R1, 0x00000400)  returns 0x00 (0000ms, 1020ms total)
T1340 001:457 JLINK_WriteReg(R2, 0x20000164)  returns 0x00 (0000ms, 1020ms total)
T1340 001:457 JLINK_WriteReg(R3, 0x00000000)  returns 0x00 (0000ms, 1020ms total)
T1340 001:457 JLINK_WriteReg(R4, 0x00000000)  returns 0x00 (0000ms, 1020ms total)
T1340 001:457 JLINK_WriteReg(R5, 0x00000000)  returns 0x00 (0000ms, 1020ms total)
T1340 001:457 JLINK_WriteReg(R6, 0x00000000)  returns 0x00 (0000ms, 1020ms total)
T1340 001:457 JLINK_WriteReg(R7, 0x00000000)  returns 0x00 (0000ms, 1020ms total)
T1340 001:457 JLINK_WriteReg(R8, 0x00000000)  returns 0x00 (0000ms, 1020ms total)
T1340 001:457 JLINK_WriteReg(R9, 0x20000160)  returns 0x00 (0000ms, 1020ms total)
T1340 001:457 JLINK_WriteReg(R10, 0x00000000)  returns 0x00 (0000ms, 1020ms total)
T1340 001:457 JLINK_WriteReg(R11, 0x00000000)  returns 0x00 (0000ms, 1020ms total)
T1340 001:458 JLINK_WriteReg(R12, 0x00000000)  returns 0x00 (0000ms, 1020ms total)
T1340 001:458 JLINK_WriteReg(R13, 0x20000800)  returns 0x00 (0000ms, 1020ms total)
T1340 001:458 JLINK_WriteReg(R14, 0x20000001)  returns 0x00 (0000ms, 1020ms total)
T1340 001:458 JLINK_WriteReg(R15, 0x200000F4)  returns 0x00 (0000ms, 1020ms total)
T1340 001:458 JLINK_WriteReg(XPSR, 0x01000000)  returns 0x00 (0000ms, 1020ms total)
T1340 001:458 JLINK_WriteReg(MSP, 0x20000800)  returns 0x00 (0000ms, 1020ms total)
T1340 001:458 JLINK_WriteReg(PSP, 0x20000800)  returns 0x00 (0000ms, 1020ms total)
T1340 001:458 JLINK_WriteReg(CFBP, 0x00000000)  returns 0x00 (0000ms, 1020ms total)
T1340 001:458 JLINK_SetBPEx(Addr = 0x20000000, Type = 0xFFFFFFF2)  returns 0x00000009 (0000ms, 1020ms total)
T1340 001:458 JLINK_Go() -- CPU_WriteMem(4 bytes @ 0xE0002008) -- CPU_WriteMem(4 bytes @ 0xE000200C) -- CPU_WriteMem(4 bytes @ 0xE0002010) -- CPU_WriteMem(4 bytes @ 0xE0002014) -- CPU_WriteMem(4 bytes @ 0xE0002018) -- CPU_WriteMem(4 bytes @ 0xE000201C) (0007ms, 1020ms total)
T1340 001:465 JLINK_IsHalted()  returns FALSE (0001ms, 1027ms total)
T1340 001:516 JLINK_IsHalted() -- CPU_ReadMem(2 bytes @ 0x20000000)  returns TRUE (0006ms, 1027ms total)
T1340 001:522 JLINK_ReadReg(R15)  returns 0x20000000 (0000ms, 1027ms total)
T1340 001:522 JLINK_ClrBPEx(BPHandle = 0x00000009)  returns 0x00 (0000ms, 1027ms total)
T1340 001:522 JLINK_ReadReg(R0)  returns 0x00000000 (0000ms, 1027ms total)
T1340 001:523 JLINK_WriteMem(0x20000164, 0x0400 Bytes, ...) -- Data:  18 B1 04 21 BB 48 03 F0 7E FB 4F F4 80 70 0A 90 ... -- CPU_WriteMem(1024 bytes @ 0x20000164)  returns 0x400 (0011ms, 1027ms total)
T1340 001:534 JLINK_WriteReg(R0, 0x08001400)  returns 0x00 (0000ms, 1038ms total)
T1340 001:534 JLINK_WriteReg(R1, 0x00000400)  returns 0x00 (0000ms, 1038ms total)
T1340 001:535 JLINK_WriteReg(R2, 0x20000164)  returns 0x00 (0000ms, 1039ms total)
T1340 001:535 JLINK_WriteReg(R3, 0x00000000)  returns 0x00 (0000ms, 1039ms total)
T1340 001:535 JLINK_WriteReg(R4, 0x00000000)  returns 0x00 (0000ms, 1039ms total)
T1340 001:535 JLINK_WriteReg(R5, 0x00000000)  returns 0x00 (0000ms, 1039ms total)
T1340 001:535 JLINK_WriteReg(R6, 0x00000000)  returns 0x00 (0000ms, 1039ms total)
T1340 001:535 JLINK_WriteReg(R7, 0x00000000)  returns 0x00 (0000ms, 1039ms total)
T1340 001:535 JLINK_WriteReg(R8, 0x00000000)  returns 0x00 (0000ms, 1039ms total)
T1340 001:535 JLINK_WriteReg(R9, 0x20000160)  returns 0x00 (0000ms, 1039ms total)
T1340 001:535 JLINK_WriteReg(R10, 0x00000000)  returns 0x00 (0000ms, 1039ms total)
T1340 001:535 JLINK_WriteReg(R11, 0x00000000)  returns 0x00 (0000ms, 1039ms total)
T1340 001:535 JLINK_WriteReg(R12, 0x00000000)  returns 0x00 (0000ms, 1039ms total)
T1340 001:535 JLINK_WriteReg(R13, 0x20000800)  returns 0x00 (0001ms, 1039ms total)
T1340 001:536 JLINK_WriteReg(R14, 0x20000001)  returns 0x00 (0000ms, 1040ms total)
T1340 001:536 JLINK_WriteReg(R15, 0x200000F4)  returns 0x00 (0000ms, 1040ms total)
T1340 001:536 JLINK_WriteReg(XPSR, 0x01000000)  returns 0x00 (0000ms, 1040ms total)
T1340 001:536 JLINK_WriteReg(MSP, 0x20000800)  returns 0x00 (0000ms, 1040ms total)
T1340 001:536 JLINK_WriteReg(PSP, 0x20000800)  returns 0x00 (0000ms, 1040ms total)
T1340 001:536 JLINK_WriteReg(CFBP, 0x00000000)  returns 0x00 (0000ms, 1040ms total)
T1340 001:536 JLINK_SetBPEx(Addr = 0x20000000, Type = 0xFFFFFFF2)  returns 0x0000000A (0000ms, 1040ms total)
T1340 001:536 JLINK_Go() -- CPU_WriteMem(4 bytes @ 0xE0002008) -- CPU_WriteMem(4 bytes @ 0xE000200C) -- CPU_WriteMem(4 bytes @ 0xE0002010) -- CPU_WriteMem(4 bytes @ 0xE0002014) -- CPU_WriteMem(4 bytes @ 0xE0002018) -- CPU_WriteMem(4 bytes @ 0xE000201C) (0007ms, 1040ms total)
T1340 001:543 JLINK_IsHalted()  returns FALSE (0001ms, 1047ms total)
T1340 001:594 JLINK_IsHalted() -- CPU_ReadMem(2 bytes @ 0x20000000)  returns TRUE (0006ms, 1047ms total)
T1340 001:600 JLINK_ReadReg(R15)  returns 0x20000000 (0000ms, 1047ms total)
T1340 001:600 JLINK_ClrBPEx(BPHandle = 0x0000000A)  returns 0x00 (0001ms, 1047ms total)
T1340 001:601 JLINK_ReadReg(R0)  returns 0x00000000 (0000ms, 1048ms total)
T1340 001:601 JLINK_WriteMem(0x20000164, 0x0400 Bytes, ...) -- Data:  18 B1 FE F7 DA FC E5 49 08 60 58 20 FE F7 F0 FC ... -- CPU_WriteMem(1024 bytes @ 0x20000164)  returns 0x400 (0011ms, 1048ms total)
T1340 001:612 JLINK_WriteReg(R0, 0x08001800)  returns 0x00 (0000ms, 1059ms total)
T1340 001:613 JLINK_WriteReg(R1, 0x00000400)  returns 0x00 (0000ms, 1060ms total)
T1340 001:613 JLINK_WriteReg(R2, 0x20000164)  returns 0x00 (0000ms, 1060ms total)
T1340 001:613 JLINK_WriteReg(R3, 0x00000000)  returns 0x00 (0000ms, 1060ms total)
T1340 001:613 JLINK_WriteReg(R4, 0x00000000)  returns 0x00 (0000ms, 1060ms total)
T1340 001:613 JLINK_WriteReg(R5, 0x00000000)  returns 0x00 (0000ms, 1060ms total)
T1340 001:613 JLINK_WriteReg(R6, 0x00000000)  returns 0x00 (0000ms, 1060ms total)
T1340 001:613 JLINK_WriteReg(R7, 0x00000000)  returns 0x00 (0000ms, 1060ms total)
T1340 001:613 JLINK_WriteReg(R8, 0x00000000)  returns 0x00 (0000ms, 1060ms total)
T1340 001:613 JLINK_WriteReg(R9, 0x20000160)  returns 0x00 (0000ms, 1060ms total)
T1340 001:613 JLINK_WriteReg(R10, 0x00000000)  returns 0x00 (0000ms, 1060ms total)
T1340 001:613 JLINK_WriteReg(R11, 0x00000000)  returns 0x00 (0001ms, 1060ms total)
T1340 001:614 JLINK_WriteReg(R12, 0x00000000)  returns 0x00 (0000ms, 1061ms total)
T1340 001:614 JLINK_WriteReg(R13, 0x20000800)  returns 0x00 (0000ms, 1061ms total)
T1340 001:614 JLINK_WriteReg(R14, 0x20000001)  returns 0x00 (0000ms, 1061ms total)
T1340 001:614 JLINK_WriteReg(R15, 0x200000F4)  returns 0x00 (0000ms, 1061ms total)
T1340 001:614 JLINK_WriteReg(XPSR, 0x01000000)  returns 0x00 (0000ms, 1061ms total)
T1340 001:614 JLINK_WriteReg(MSP, 0x20000800)  returns 0x00 (0000ms, 1061ms total)
T1340 001:614 JLINK_WriteReg(PSP, 0x20000800)  returns 0x00 (0000ms, 1061ms total)
T1340 001:614 JLINK_WriteReg(CFBP, 0x00000000)  returns 0x00 (0000ms, 1061ms total)
T1340 001:614 JLINK_SetBPEx(Addr = 0x20000000, Type = 0xFFFFFFF2)  returns 0x0000000B (0000ms, 1061ms total)
T1340 001:614 JLINK_Go() -- CPU_WriteMem(4 bytes @ 0xE0002008) -- CPU_WriteMem(4 bytes @ 0xE000200C) -- CPU_WriteMem(4 bytes @ 0xE0002010) -- CPU_WriteMem(4 bytes @ 0xE0002014) -- CPU_WriteMem(4 bytes @ 0xE0002018) -- CPU_WriteMem(4 bytes @ 0xE000201C) (0007ms, 1061ms total)
T1340 001:621 JLINK_IsHalted()  returns FALSE (0001ms, 1068ms total)
T1340 001:673 JLINK_IsHalted() -- CPU_ReadMem(2 bytes @ 0x20000000)  returns TRUE (0006ms, 1068ms total)
T1340 001:679 JLINK_ReadReg(R15)  returns 0x20000000 (0001ms, 1068ms total)
T1340 001:680 JLINK_ClrBPEx(BPHandle = 0x0000000B)  returns 0x00 (0000ms, 1069ms total)
T1340 001:680 JLINK_ReadReg(R0)  returns 0x00000000 (0000ms, 1069ms total)
T1340 001:680 JLINK_WriteMem(0x20000164, 0x0400 Bytes, ...) -- Data:  07 90 03 F0 77 FC 15 90 FC 49 FD 48 00 68 03 F0 ... -- CPU_WriteMem(1024 bytes @ 0x20000164)  returns 0x400 (0012ms, 1069ms total)
T1340 001:692 JLINK_WriteReg(R0, 0x08001C00)  returns 0x00 (0000ms, 1081ms total)
T1340 001:692 JLINK_WriteReg(R1, 0x00000400)  returns 0x00 (0000ms, 1081ms total)
T1340 001:692 JLINK_WriteReg(R2, 0x20000164)  returns 0x00 (0000ms, 1081ms total)
T1340 001:692 JLINK_WriteReg(R3, 0x00000000)  returns 0x00 (0000ms, 1081ms total)
T1340 001:692 JLINK_WriteReg(R4, 0x00000000)  returns 0x00 (0000ms, 1081ms total)
T1340 001:692 JLINK_WriteReg(R5, 0x00000000)  returns 0x00 (0000ms, 1081ms total)
T1340 001:692 JLINK_WriteReg(R6, 0x00000000)  returns 0x00 (0000ms, 1081ms total)
T1340 001:692 JLINK_WriteReg(R7, 0x00000000)  returns 0x00 (0000ms, 1081ms total)
T1340 001:692 JLINK_WriteReg(R8, 0x00000000)  returns 0x00 (0001ms, 1081ms total)
T1340 001:693 JLINK_WriteReg(R9, 0x20000160)  returns 0x00 (0000ms, 1082ms total)
T1340 001:693 JLINK_WriteReg(R10, 0x00000000)  returns 0x00 (0000ms, 1082ms total)
T1340 001:693 JLINK_WriteReg(R11, 0x00000000)  returns 0x00 (0000ms, 1082ms total)
T1340 001:693 JLINK_WriteReg(R12, 0x00000000)  returns 0x00 (0000ms, 1082ms total)
T1340 001:693 JLINK_WriteReg(R13, 0x20000800)  returns 0x00 (0000ms, 1082ms total)
T1340 001:693 JLINK_WriteReg(R14, 0x20000001)  returns 0x00 (0000ms, 1082ms total)
T1340 001:693 JLINK_WriteReg(R15, 0x200000F4)  returns 0x00 (0000ms, 1082ms total)
T1340 001:693 JLINK_WriteReg(XPSR, 0x01000000)  returns 0x00 (0000ms, 1082ms total)
T1340 001:693 JLINK_WriteReg(MSP, 0x20000800)  returns 0x00 (0000ms, 1082ms total)
T1340 001:693 JLINK_WriteReg(PSP, 0x20000800)  returns 0x00 (0000ms, 1082ms total)
T1340 001:693 JLINK_WriteReg(CFBP, 0x00000000)  returns 0x00 (0001ms, 1082ms total)
T1340 001:694 JLINK_SetBPEx(Addr = 0x20000000, Type = 0xFFFFFFF2)  returns 0x0000000C (0000ms, 1083ms total)
T1340 001:694 JLINK_Go() -- CPU_WriteMem(4 bytes @ 0xE0002008) -- CPU_WriteMem(4 bytes @ 0xE000200C) -- CPU_WriteMem(4 bytes @ 0xE0002010) -- CPU_WriteMem(4 bytes @ 0xE0002014) -- CPU_WriteMem(4 bytes @ 0xE0002018) -- CPU_WriteMem(4 bytes @ 0xE000201C) (0006ms, 1083ms total)
T1340 001:700 JLINK_IsHalted()  returns FALSE (0001ms, 1089ms total)
T1340 001:751 JLINK_IsHalted() -- CPU_ReadMem(2 bytes @ 0x20000000)  returns TRUE (0008ms, 1089ms total)
T1340 001:759 JLINK_ReadReg(R15)  returns 0x20000000 (0000ms, 1089ms total)
T1340 001:759 JLINK_ClrBPEx(BPHandle = 0x0000000C)  returns 0x00 (0000ms, 1089ms total)
T1340 001:759 JLINK_ReadReg(R0)  returns 0x00000000 (0000ms, 1089ms total)
T1340 001:760 JLINK_WriteMem(0x20000164, 0x0400 Bytes, ...) -- Data:  40 00 00 20 3C 00 00 20 00 00 40 40 00 00 C8 C2 ... -- CPU_WriteMem(1024 bytes @ 0x20000164)  returns 0x400 (0011ms, 1089ms total)
T1340 001:771 JLINK_WriteReg(R0, 0x08002000)  returns 0x00 (0000ms, 1100ms total)
T1340 001:771 JLINK_WriteReg(R1, 0x00000400)  returns 0x00 (0000ms, 1100ms total)
T1340 001:771 JLINK_WriteReg(R2, 0x20000164)  returns 0x00 (0001ms, 1100ms total)
T1340 001:772 JLINK_WriteReg(R3, 0x00000000)  returns 0x00 (0000ms, 1101ms total)
T1340 001:772 JLINK_WriteReg(R4, 0x00000000)  returns 0x00 (0000ms, 1101ms total)
T1340 001:772 JLINK_WriteReg(R5, 0x00000000)  returns 0x00 (0000ms, 1101ms total)
T1340 001:772 JLINK_WriteReg(R6, 0x00000000)  returns 0x00 (0000ms, 1101ms total)
T1340 001:772 JLINK_WriteReg(R7, 0x00000000)  returns 0x00 (0000ms, 1101ms total)
T1340 001:772 JLINK_WriteReg(R8, 0x00000000)  returns 0x00 (0000ms, 1101ms total)
T1340 001:772 JLINK_WriteReg(R9, 0x20000160)  returns 0x00 (0000ms, 1101ms total)
T1340 001:772 JLINK_WriteReg(R10, 0x00000000)  returns 0x00 (0000ms, 1101ms total)
T1340 001:772 JLINK_WriteReg(R11, 0x00000000)  returns 0x00 (0000ms, 1101ms total)
T1340 001:772 JLINK_WriteReg(R12, 0x00000000)  returns 0x00 (0001ms, 1101ms total)
T1340 001:773 JLINK_WriteReg(R13, 0x20000800)  returns 0x00 (0000ms, 1102ms total)
T1340 001:773 JLINK_WriteReg(R14, 0x20000001)  returns 0x00 (0000ms, 1102ms total)
T1340 001:773 JLINK_WriteReg(R15, 0x200000F4)  returns 0x00 (0000ms, 1102ms total)
T1340 001:773 JLINK_WriteReg(XPSR, 0x01000000)  returns 0x00 (0000ms, 1102ms total)
T1340 001:773 JLINK_WriteReg(MSP, 0x20000800)  returns 0x00 (0000ms, 1102ms total)
T1340 001:773 JLINK_WriteReg(PSP, 0x20000800)  returns 0x00 (0000ms, 1102ms total)
T1340 001:773 JLINK_WriteReg(CFBP, 0x00000000)  returns 0x00 (0000ms, 1102ms total)
T1340 001:773 JLINK_SetBPEx(Addr = 0x20000000, Type = 0xFFFFFFF2)  returns 0x0000000D (0000ms, 1102ms total)
T1340 001:773 JLINK_Go() -- CPU_WriteMem(4 bytes @ 0xE0002008) -- CPU_WriteMem(4 bytes @ 0xE000200C) -- CPU_WriteMem(4 bytes @ 0xE0002010) -- CPU_WriteMem(4 bytes @ 0xE0002014) -- CPU_WriteMem(4 bytes @ 0xE0002018) -- CPU_WriteMem(4 bytes @ 0xE000201C) (0007ms, 1102ms total)
T1340 001:781 JLINK_IsHalted()  returns FALSE (0001ms, 1110ms total)
T1340 001:832 JLINK_IsHalted() -- CPU_ReadMem(2 bytes @ 0x20000000)  returns TRUE (0006ms, 1110ms total)
T1340 001:838 JLINK_ReadReg(R15)  returns 0x20000000 (0000ms, 1110ms total)
T1340 001:838 JLINK_ClrBPEx(BPHandle = 0x0000000D)  returns 0x00 (0000ms, 1110ms total)
T1340 001:838 JLINK_ReadReg(R0)  returns 0x00000000 (0000ms, 1110ms total)
T1340 001:839 JLINK_WriteMem(0x20000164, 0x0400 Bytes, ...) -- Data:  3C 48 04 F0 13 F8 5B A1 3A 48 04 F0 0F F8 AF F2 ... -- CPU_WriteMem(1024 bytes @ 0x20000164)  returns 0x400 (0011ms, 1110ms total)
T1340 001:850 JLINK_WriteReg(R0, 0x08002400)  returns 0x00 (0000ms, 1121ms total)
T1340 001:850 JLINK_WriteReg(R1, 0x00000400)  returns 0x00 (0000ms, 1121ms total)
T1340 001:850 JLINK_WriteReg(R2, 0x20000164)  returns 0x00 (0000ms, 1121ms total)
T1340 001:850 JLINK_WriteReg(R3, 0x00000000)  returns 0x00 (0000ms, 1121ms total)
T1340 001:850 JLINK_WriteReg(R4, 0x00000000)  returns 0x00 (0000ms, 1121ms total)
T1340 001:850 JLINK_WriteReg(R5, 0x00000000)  returns 0x00 (0001ms, 1121ms total)
T1340 001:851 JLINK_WriteReg(R6, 0x00000000)  returns 0x00 (0000ms, 1122ms total)
T1340 001:851 JLINK_WriteReg(R7, 0x00000000)  returns 0x00 (0000ms, 1122ms total)
T1340 001:851 JLINK_WriteReg(R8, 0x00000000)  returns 0x00 (0000ms, 1122ms total)
T1340 001:851 JLINK_WriteReg(R9, 0x20000160)  returns 0x00 (0000ms, 1122ms total)
T1340 001:851 JLINK_WriteReg(R10, 0x00000000)  returns 0x00 (0000ms, 1122ms total)
T1340 001:851 JLINK_WriteReg(R11, 0x00000000)  returns 0x00 (0000ms, 1122ms total)
T1340 001:851 JLINK_WriteReg(R12, 0x00000000)  returns 0x00 (0000ms, 1122ms total)
T1340 001:851 JLINK_WriteReg(R13, 0x20000800)  returns 0x00 (0000ms, 1122ms total)
T1340 001:851 JLINK_WriteReg(R14, 0x20000001)  returns 0x00 (0000ms, 1122ms total)
T1340 001:851 JLINK_WriteReg(R15, 0x200000F4)  returns 0x00 (0000ms, 1122ms total)
T1340 001:851 JLINK_WriteReg(XPSR, 0x01000000)  returns 0x00 (0001ms, 1122ms total)
T1340 001:852 JLINK_WriteReg(MSP, 0x20000800)  returns 0x00 (0000ms, 1123ms total)
T1340 001:852 JLINK_WriteReg(PSP, 0x20000800)  returns 0x00 (0000ms, 1123ms total)
T1340 001:852 JLINK_WriteReg(CFBP, 0x00000000)  returns 0x00 (0000ms, 1123ms total)
T1340 001:852 JLINK_SetBPEx(Addr = 0x20000000, Type = 0xFFFFFFF2)  returns 0x0000000E (0000ms, 1123ms total)
T1340 001:852 JLINK_Go() -- CPU_WriteMem(4 bytes @ 0xE0002008) -- CPU_WriteMem(4 bytes @ 0xE000200C) -- CPU_WriteMem(4 bytes @ 0xE0002010) -- CPU_WriteMem(4 bytes @ 0xE0002014) -- CPU_WriteMem(4 bytes @ 0xE0002018) -- CPU_WriteMem(4 bytes @ 0xE000201C) (0007ms, 1123ms total)
T1340 001:859 JLINK_IsHalted()  returns FALSE (0002ms, 1130ms total)
T1340 001:911 JLINK_IsHalted() -- CPU_ReadMem(2 bytes @ 0x20000000)  returns TRUE (0006ms, 1130ms total)
T1340 001:917 JLINK_ReadReg(R15)  returns 0x20000000 (0000ms, 1130ms total)
T1340 001:917 JLINK_ClrBPEx(BPHandle = 0x0000000E)  returns 0x00 (0000ms, 1130ms total)
T1340 001:917 JLINK_ReadReg(R0)  returns 0x00000000 (0000ms, 1130ms total)
T1340 001:918 JLINK_WriteMem(0x20000164, 0x0400 Bytes, ...) -- Data:  40 5C FB E7 10 B5 04 46 8B 49 20 46 02 F0 CA FE ... -- CPU_WriteMem(1024 bytes @ 0x20000164)  returns 0x400 (0011ms, 1130ms total)
T1340 001:929 JLINK_WriteReg(R0, 0x08002800)  returns 0x00 (0000ms, 1141ms total)
T1340 001:929 JLINK_WriteReg(R1, 0x00000400)  returns 0x00 (0000ms, 1141ms total)
T1340 001:929 JLINK_WriteReg(R2, 0x20000164)  returns 0x00 (0001ms, 1141ms total)
T1340 001:930 JLINK_WriteReg(R3, 0x00000000)  returns 0x00 (0000ms, 1142ms total)
T1340 001:930 JLINK_WriteReg(R4, 0x00000000)  returns 0x00 (0000ms, 1142ms total)
T1340 001:930 JLINK_WriteReg(R5, 0x00000000)  returns 0x00 (0000ms, 1142ms total)
T1340 001:930 JLINK_WriteReg(R6, 0x00000000)  returns 0x00 (0000ms, 1142ms total)
T1340 001:930 JLINK_WriteReg(R7, 0x00000000)  returns 0x00 (0000ms, 1142ms total)
T1340 001:930 JLINK_WriteReg(R8, 0x00000000)  returns 0x00 (0000ms, 1142ms total)
T1340 001:930 JLINK_WriteReg(R9, 0x20000160)  returns 0x00 (0000ms, 1142ms total)
T1340 001:930 JLINK_WriteReg(R10, 0x00000000)  returns 0x00 (0000ms, 1142ms total)
T1340 001:930 JLINK_WriteReg(R11, 0x00000000)  returns 0x00 (0000ms, 1142ms total)
T1340 001:930 JLINK_WriteReg(R12, 0x00000000)  returns 0x00 (0000ms, 1142ms total)
T1340 001:930 JLINK_WriteReg(R13, 0x20000800)  returns 0x00 (0001ms, 1142ms total)
T1340 001:931 JLINK_WriteReg(R14, 0x20000001)  returns 0x00 (0000ms, 1143ms total)
T1340 001:931 JLINK_WriteReg(R15, 0x200000F4)  returns 0x00 (0000ms, 1143ms total)
T1340 001:931 JLINK_WriteReg(XPSR, 0x01000000)  returns 0x00 (0000ms, 1143ms total)
T1340 001:931 JLINK_WriteReg(MSP, 0x20000800)  returns 0x00 (0000ms, 1143ms total)
T1340 001:931 JLINK_WriteReg(PSP, 0x20000800)  returns 0x00 (0000ms, 1143ms total)
T1340 001:931 JLINK_WriteReg(CFBP, 0x00000000)  returns 0x00 (0000ms, 1143ms total)
T1340 001:931 JLINK_SetBPEx(Addr = 0x20000000, Type = 0xFFFFFFF2)  returns 0x0000000F (0000ms, 1143ms total)
T1340 001:931 JLINK_Go() -- CPU_WriteMem(4 bytes @ 0xE0002008) -- CPU_WriteMem(4 bytes @ 0xE000200C) -- CPU_WriteMem(4 bytes @ 0xE0002010) -- CPU_WriteMem(4 bytes @ 0xE0002014) -- CPU_WriteMem(4 bytes @ 0xE0002018) -- CPU_WriteMem(4 bytes @ 0xE000201C) (0008ms, 1143ms total)
T1340 001:939 JLINK_IsHalted()  returns FALSE (0001ms, 1151ms total)
T1340 001:990 JLINK_IsHalted() -- CPU_ReadMem(2 bytes @ 0x20000000)  returns TRUE (0006ms, 1151ms total)
T1340 001:996 JLINK_ReadReg(R15)  returns 0x20000000 (0000ms, 1151ms total)
T1340 001:996 JLINK_ClrBPEx(BPHandle = 0x0000000F)  returns 0x00 (0000ms, 1151ms total)
T1340 001:996 JLINK_ReadReg(R0)  returns 0x00000000 (0001ms, 1151ms total)
T1340 001:997 JLINK_WriteMem(0x20000164, 0x0400 Bytes, ...) -- Data:  E0 6B 02 F0 D3 FE 04 90 0B 99 02 F0 CB FC 05 90 ... -- CPU_WriteMem(1024 bytes @ 0x20000164)  returns 0x400 (0011ms, 1152ms total)
T1340 002:008 JLINK_WriteReg(R0, 0x08002C00)  returns 0x00 (0000ms, 1163ms total)
T1340 002:008 JLINK_WriteReg(R1, 0x00000400)  returns 0x00 (0001ms, 1163ms total)
T1340 002:009 JLINK_WriteReg(R2, 0x20000164)  returns 0x00 (0000ms, 1164ms total)
T1340 002:009 JLINK_WriteReg(R3, 0x00000000)  returns 0x00 (0000ms, 1164ms total)
T1340 002:009 JLINK_WriteReg(R4, 0x00000000)  returns 0x00 (0000ms, 1164ms total)
T1340 002:009 JLINK_WriteReg(R5, 0x00000000)  returns 0x00 (0000ms, 1164ms total)
T1340 002:009 JLINK_WriteReg(R6, 0x00000000)  returns 0x00 (0000ms, 1164ms total)
T1340 002:009 JLINK_WriteReg(R7, 0x00000000)  returns 0x00 (0000ms, 1164ms total)
T1340 002:009 JLINK_WriteReg(R8, 0x00000000)  returns 0x00 (0000ms, 1164ms total)
T1340 002:009 JLINK_WriteReg(R9, 0x20000160)  returns 0x00 (0000ms, 1164ms total)
T1340 002:009 JLINK_WriteReg(R10, 0x00000000)  returns 0x00 (0000ms, 1164ms total)
T1340 002:009 JLINK_WriteReg(R11, 0x00000000)  returns 0x00 (0000ms, 1164ms total)
T1340 002:009 JLINK_WriteReg(R12, 0x00000000)  returns 0x00 (0000ms, 1164ms total)
T1340 002:009 JLINK_WriteReg(R13, 0x20000800)  returns 0x00 (0001ms, 1164ms total)
T1340 002:010 JLINK_WriteReg(R14, 0x20000001)  returns 0x00 (0000ms, 1165ms total)
T1340 002:010 JLINK_WriteReg(R15, 0x200000F4)  returns 0x00 (0000ms, 1165ms total)
T1340 002:010 JLINK_WriteReg(XPSR, 0x01000000)  returns 0x00 (0000ms, 1165ms total)
T1340 002:010 JLINK_WriteReg(MSP, 0x20000800)  returns 0x00 (0000ms, 1165ms total)
T1340 002:010 JLINK_WriteReg(PSP, 0x20000800)  returns 0x00 (0000ms, 1165ms total)
T1340 002:010 JLINK_WriteReg(CFBP, 0x00000000)  returns 0x00 (0000ms, 1165ms total)
T1340 002:010 JLINK_SetBPEx(Addr = 0x20000000, Type = 0xFFFFFFF2)  returns 0x00000010 (0000ms, 1165ms total)
T1340 002:010 JLINK_Go() -- CPU_WriteMem(4 bytes @ 0xE0002008) -- CPU_WriteMem(4 bytes @ 0xE000200C) -- CPU_WriteMem(4 bytes @ 0xE0002010) -- CPU_WriteMem(4 bytes @ 0xE0002014) -- CPU_WriteMem(4 bytes @ 0xE0002018) -- CPU_WriteMem(4 bytes @ 0xE000201C) (0007ms, 1165ms total)
T1340 002:017 JLINK_IsHalted()  returns FALSE (0001ms, 1172ms total)
T1340 002:068 JLINK_IsHalted() -- CPU_ReadMem(2 bytes @ 0x20000000)  returns TRUE (0006ms, 1172ms total)
T1340 002:074 JLINK_ReadReg(R15)  returns 0x20000000 (0000ms, 1172ms total)
T1340 002:074 JLINK_ClrBPEx(BPHandle = 0x00000010)  returns 0x00 (0000ms, 1172ms total)
T1340 002:074 JLINK_ReadReg(R0)  returns 0x00000000 (0001ms, 1172ms total)
T1340 002:075 JLINK_WriteMem(0x20000164, 0x0400 Bytes, ...) -- Data:  1F B5 AE B0 00 20 20 90 4F F0 7E 50 1B 90 B5 48 ... -- CPU_WriteMem(1024 bytes @ 0x20000164)  returns 0x400 (0011ms, 1173ms total)
T1340 002:086 JLINK_WriteReg(R0, 0x08003000)  returns 0x00 (0000ms, 1184ms total)
T1340 002:086 JLINK_WriteReg(R1, 0x00000400)  returns 0x00 (0001ms, 1184ms total)
T1340 002:087 JLINK_WriteReg(R2, 0x20000164)  returns 0x00 (0000ms, 1185ms total)
T1340 002:087 JLINK_WriteReg(R3, 0x00000000)  returns 0x00 (0000ms, 1185ms total)
T1340 002:087 JLINK_WriteReg(R4, 0x00000000)  returns 0x00 (0000ms, 1185ms total)
T1340 002:087 JLINK_WriteReg(R5, 0x00000000)  returns 0x00 (0000ms, 1185ms total)
T1340 002:087 JLINK_WriteReg(R6, 0x00000000)  returns 0x00 (0000ms, 1185ms total)
T1340 002:087 JLINK_WriteReg(R7, 0x00000000)  returns 0x00 (0000ms, 1185ms total)
T1340 002:087 JLINK_WriteReg(R8, 0x00000000)  returns 0x00 (0000ms, 1185ms total)
T1340 002:087 JLINK_WriteReg(R9, 0x20000160)  returns 0x00 (0000ms, 1185ms total)
T1340 002:087 JLINK_WriteReg(R10, 0x00000000)  returns 0x00 (0000ms, 1185ms total)
T1340 002:087 JLINK_WriteReg(R11, 0x00000000)  returns 0x00 (0000ms, 1185ms total)
T1340 002:087 JLINK_WriteReg(R12, 0x00000000)  returns 0x00 (0000ms, 1185ms total)
T1340 002:087 JLINK_WriteReg(R13, 0x20000800)  returns 0x00 (0001ms, 1185ms total)
T1340 002:088 JLINK_WriteReg(R14, 0x20000001)  returns 0x00 (0000ms, 1186ms total)
T1340 002:088 JLINK_WriteReg(R15, 0x200000F4)  returns 0x00 (0000ms, 1186ms total)
T1340 002:088 JLINK_WriteReg(XPSR, 0x01000000)  returns 0x00 (0000ms, 1186ms total)
T1340 002:088 JLINK_WriteReg(MSP, 0x20000800)  returns 0x00 (0000ms, 1186ms total)
T1340 002:088 JLINK_WriteReg(PSP, 0x20000800)  returns 0x00 (0000ms, 1186ms total)
T1340 002:088 JLINK_WriteReg(CFBP, 0x00000000)  returns 0x00 (0000ms, 1186ms total)
T1340 002:088 JLINK_SetBPEx(Addr = 0x20000000, Type = 0xFFFFFFF2)  returns 0x00000011 (0000ms, 1186ms total)
